Circuit: * E:\git\Simulacion-de-circuitos-electronicos\docs\Ejemplos\Mas-conceptos\E6-curvas-2N2222.asc

Direct Newton iteration for .op point succeeded.
Semiconductor Device Operating Points:
                        --- Bipolar Transistors ---
Name:       q1
Model:    2n2222a
Ib:       2.62e-05
Ic:       4.56e-03
Vbe:      6.85e-01
Vbc:     -3.26e+00
Vce:      3.95e+00
BetaDC:   1.74e+02
Gm:       1.74e-01
Rpi:      1.07e+03
Rx:       1.00e+01
Ro:       1.69e+04
Cbe:      1.09e-10
Cbc:      4.12e-12
Cjs:      0.00e+00
BetaAC:   1.86e+02
Cbx:      0.00e+00
Ft:       2.45e+08



Date: Wed Aug 19 18:57:59 2020
Total elapsed time: 0.171 seconds.

tnom = 27
temp = 27
method = trap
totiter = 5
traniter = 0
tranpoints = 0
accept = 0
rejected = 0
matrix size = 7
fillins = 0
solver = Normal
Matrix Compiler1: 428 bytes object code size
Matrix Compiler2: 569 bytes object code size
